#Digilent WaveForms Network Analyzer - Bode
#Device Name: Discovery2
#Serial Number: SN:210321B027D8
#Date Time: 2023-06-12 12:30:51.471
#Start: 100 Hz
#Stop: 8000 Hz
#Steps: 501
#Wavegen: Wavegen C1
#Amplification: 1 X
#Settle: 10 ms
#MinPeriods: 16 
#Channel: Channel 1
#Range: 5.47316 V
#Offset: 0.000111453 V
#Relative: no
#Channel: Channel 2
#Range: 5.4696 V
#Offset: 0.000228279 V
#Relative: yes

Frequency (Hz),Channel 1 Magnitude (dB),Channel 2 Magnitude (dB),Channel 2 Phase (deg)
100,-0.005917302306556356,-50.5220058272451,170.856073066974
115.8,-0.005174927394716883,-49.15972403281127,153.9690871872046
131.6,-0.004836381985010392,-48.07146787038096,137.3112024397732
147.4,-0.004267689862287978,-47.04087430573668,120.4393626764997
163.2,-0.004024155460427616,-46.12374713655274,104.2038183457791
179,-0.004202429349486502,-45.27951736967846,87.75232047436403
194.8,-0.003717976708054191,-44.51088421651534,71.44766128794416
210.6,-0.003777319052493948,-43.81737274793562,55.19515563519516
226.4,-0.003724445405752488,-43.16695803476133,39.12348662435555
242.2,-0.00333331837438184,-42.56681332831394,22.68219303050271
258.0000000000001,-0.003350796733264886,-42.0479094504859,6.522309985653457
273.8000000000001,-0.003524484369890943,-41.48020728585068,-9.735066517662521
289.6,-0.003273739078703285,-41.01409404426398,-25.80445834804121
305.4,-0.003308951985251002,-40.54075593647259,-42.03917362360424
321.2,-0.003562031720870763,-40.11795712430468,-58.2719521574144
337.0000000000001,-0.003209581342652572,-39.71302921061177,-74.36055931896486
352.8000000000001,-0.00348417775976444,-39.3395386392575,-90.65141583770952
368.6000000000001,-0.003454107228062366,-38.93947816258415,-106.9269273368669
384.4,-0.003354093156953334,-38.59746606423192,-123.262156867682
400.2,-0.003727964605732735,-38.25291338509129,-139.5746899405142
416.0000000000001,-0.003593590868524568,-37.90023105033217,-155.7870096562613
431.8000000000001,-0.00391787673472061,-37.59121867675836,-172.0447579644383
447.6000000000001,-0.003641442569179699,-37.25917478126768,171.6924277932665
463.4,-0.003560772553596172,-36.96785071254207,155.344411068781
479.2,-0.003203687152106377,-36.6584430240323,139.1840441599651
495.0000000000001,-0.004004822477730782,-36.35947007684794,122.7903549578577
510.8000000000001,-0.003586787126454322,-36.0743146694625,106.4676790130336
526.6000000000001,-0.003365327611495936,-35.80135519935213,90.27896690602793
542.4000000000001,-0.003368845824678138,-35.50783065252837,74.04929827656194
558.2,-0.003324229196463297,-35.2468861451319,57.79201174463482
574.0000000000001,-0.003240905685770382,-34.99938549519847,41.51069519022515
589.8000000000001,-0.003302824465182053,-34.72974576083826,25.32508372199063
605.6000000000001,-0.003582763932345721,-34.51057613634488,9.168623987041045
621.4000000000001,-0.003630503234528296,-34.25061829795028,-6.95807552913509
637.2000000000002,-0.003932350330840838,-34.02052522056491,-23.08724424896123
653.0000000000001,-0.003168902775500144,-33.81616114315231,-39.37529272878407
668.8000000000001,-0.00377360216203635,-33.58479365410335,-55.50629553849731
684.6000000000001,-0.003473292305612173,-33.39232012119869,-71.84870637406733
700.4000000000001,-0.00396242498603129,-33.18348221494116,-87.95511157759351
716.2000000000002,-0.003705944551449875,-32.97223259435584,-104.1209789367504
732.0000000000001,-0.003485852559382246,-32.78672266856717,-120.3503422044594
747.8000000000001,-0.003506618711846475,-32.59650440518756,-136.6885003396373
763.6000000000001,-0.00381588398888168,-32.40262826986695,-152.8148222637388
779.4000000000001,-0.004691774284504864,-32.21661849570781,-169.1067510878403
795.2000000000002,-0.003887242360764218,-32.0436793937733,174.675424206077
811.0000000000001,-0.00448356110638977,-31.85576445332465,158.3578545834524
826.8000000000001,-0.00407040754255164,-31.67539148427427,142.1111842157607
842.6000000000001,-0.004476804564496274,-31.50635764594179,125.9145060829864
858.4000000000001,-0.004017175375897639,-31.33471460115919,109.6944148615443
874.2000000000002,-0.003615627138484269,-31.13554674395053,93.44048492093121
890.0000000000001,-0.003722024468529776,-30.98053355170997,77.1850696584347
905.8000000000001,-0.004197456484176758,-30.82683023125817,60.95187791276976
921.6000000000001,-0.003915938422329417,-30.64579640750399,44.76742145868462
937.4000000000001,-0.003703232199901485,-30.47815136692218,28.49769128739874
953.2000000000002,-0.004725524269835014,-30.32901298616888,12.33089512823465
969.0000000000001,-0.004399912129445019,-30.15677854647787,-3.872234177565416
984.8000000000001,-0.003825639700714781,-29.99600116157343,-20.1741097592433
1000.6,-0.004016307060356305,-29.84991712805951,-36.32239732776092
1016.4,-0.003737794345814668,-29.68897428381324,-52.50247120570352
1032.2,-0.004328324246532976,-29.54156825021779,-68.6360144666571
1048,-0.004311800018253584,-29.40741583190727,-84.88737387164049
1063.8,-0.004443023003371634,-29.25867595303437,-101.0657953834149
1079.6,-0.004758336919564679,-29.11585092178092,-117.3302252702712
1095.4,-0.005001460547822473,-28.97417731770228,-133.5228478246145
1111.2,-0.004929733642719987,-28.82865378003049,-149.7513125412048
1127,-0.004851391807226828,-28.71370360321684,-165.8985241603483
1142.8,-0.004978412254539708,-28.56626519158486,177.7675994236388
1158.6,-0.004696841761049774,-28.42831683505433,161.5290582809882
1174.4,-0.004341164009090177,-28.30576457919172,145.2805958264361
1190.2,-0.004351303230715578,-28.16141039298097,129.0627337267363
1206,-0.005019306368954686,-28.03396200981276,112.8789174500002
1221.8,-0.005287364258594354,-27.89605765643073,96.61307304245379
1237.6,-0.004988091531612745,-27.7601104918196,80.3204847199294
1253.4,-0.00475399468432476,-27.63661294574168,64.13748322379379
1269.2,-0.005075910939949167,-27.49889622323934,47.894292054784
1285,-0.005200435462710869,-27.37066275615619,31.6159895202439
1300.8,-0.004640181648964663,-27.24357067474998,15.45891439800582
1316.6,-0.005055472239864429,-27.11152539971438,-0.733682917693568
1332.4,-0.005522705876627077,-26.98347870868981,-16.92774447114059
1348.2,-0.005532570613063422,-26.85996715460787,-33.15761480153218
1364,-0.004900760538203067,-26.73201892875532,-49.40584371657833
1379.8,-0.004943620796348285,-26.61207660740372,-65.5804764823901
1395.6,-0.005284262604815186,-26.50397375204755,-81.78084773935981
1411.4,-0.004789694006605322,-26.37268555846952,-97.96301022323513
1427.2,-0.005029947660150909,-26.2547987371897,-114.1899260891829
1443,-0.00563732987153548,-26.13381715913867,-130.4038749762826
1458.8,-0.005773801644169733,-26.02202429727218,-146.6574245514236
1474.6,-0.005192183752036674,-25.91074814984292,-162.843079472894
1490.4,-0.005150708195124049,-25.78087873135677,-179.120717132443
1506.2,-0.005968094985056965,-25.67555525249475,164.6637535770445
1522,-0.005785533392194855,-25.5637161505054,148.4344377080212
1537.8,-0.005536091070722653,-25.44860177627915,132.2145929277094
1553.6,-0.006187652635463265,-25.32873215775324,115.9434068697146
1569.4,-0.006157971589056468,-25.21425676336117,99.66375063118713
1585.2,-0.006244861091359062,-25.10247485657796,83.46695910285834
1601,-0.005689162208813184,-24.98567390007261,67.21165123049522
1616.8,-0.005903107649490206,-24.86944955349559,50.96559301229511
1632.6,-0.006086723788737203,-24.75944735990469,34.72880567800428
1648.4,-0.006130477628549097,-24.63704258331953,18.52761761440245
1664.2,-0.005864533172647179,-24.52908074721311,2.29194679692643
1680,-0.005950117309328766,-24.41136720005418,-13.93403737653928
1695.8,-0.005980592931999094,-24.29705842462877,-30.1534331397976
1711.6,-0.005646522658582609,-24.18527353056071,-46.35806895101344
1727.4,-0.005862355410161525,-24.07006927154853,-62.5953295587082
1743.2,-0.005950519509544554,-23.96527764468862,-78.78326819819164
1759,-0.005874694689289403,-23.84661579825388,-95.01100745207205
1774.8,-0.006132599803572429,-23.74248767424868,-111.226259013352
1790.6,-0.006074722408439425,-23.63948034684793,-127.4288750039133
1806.4,-0.006475960010093366,-23.52424233416349,-143.665789065162
1822.2,-0.006761122764826834,-23.42724622728623,-159.8975022911795
1838,-0.006235597313434044,-23.32673953840099,-176.1333791765054
1853.8,-0.00710199782351292,-23.20983379716029,167.6347580837368
1869.6,-0.006915428537085313,-23.10330717781435,151.3589707431917
1885.4,-0.007019753814801763,-22.9989946522234,135.0965452909424
1901.2,-0.007027182090351783,-22.90267962249388,118.8400910862625
1917,-0.00678447145098963,-22.78032888051041,102.6201342044171
1932.8,-0.006936832178221385,-22.6705110082867,86.38256409347727
1948.6,-0.007039942064404839,-22.57325687566956,70.12422374243599
1964.4,-0.006966095998767586,-22.46164092660686,53.88805565071806
1980.2,-0.007218373530710453,-22.35215892803041,37.67126992673003
1996,-0.007359718057767243,-22.24075291832314,21.45281189819967
2011.8,-0.006799197328929385,-22.12938618489046,5.176218129141446
2027.6,-0.006562679292458655,-22.02857957954603,-11.06291572078064
2043.4,-0.007442239522131376,-21.91395834780727,-27.27409811808024
2059.2,-0.007085412826713513,-21.80713742715425,-43.52119053499748
2075,-0.006964254236156985,-21.709467770492,-59.7511636782408
2090.8,-0.007262242718358212,-21.59482419325867,-75.97302995276533
2106.6,-0.00774482636808029,-21.49786836853606,-92.20455237853496
2122.400000000001,-0.007631935601298774,-21.38456814049832,-108.4489567216713
2138.2,-0.008443707276818979,-21.27029172081907,-124.70705077925
2154,-0.008876533283460759,-21.15428625306935,-140.9175778156855
2169.8,-0.008243584137662007,-21.05085026523215,-157.1764799090546
2185.6,-0.008090957372014648,-20.94163605757327,-173.4323827892954
2201.400000000001,-0.00849991894002403,-20.83334453997543,170.3254025107256
2217.2,-0.007669264405539581,-20.72481970101694,154.0394291395264
2233,-0.007958028454615587,-20.62837882810937,137.7966064542105
2248.800000000001,-0.009190497896040912,-20.50845428993983,121.548482928694
2264.6,-0.008549201347694536,-20.38539089921402,105.2489066440595
2280.400000000001,-0.008753101803403572,-20.2943465866925,89.0149851598983
2296.2,-0.008065358265099978,-20.19547027269591,72.78495737233109
2312,-0.008692392088103816,-20.06878502109963,56.4866160097706
2327.800000000001,-0.009381212139775413,-19.94498192691188,40.2100695548786
2343.6,-0.008371771729730061,-19.8387737054052,23.98211718084006
2359.400000000001,-0.008527328765180425,-19.74656263800694,7.686362117755226
2375.2,-0.009044392030247027,-19.63608200938808,-8.546198063371572
2391,-0.008835891796339555,-19.47951418339282,-24.81322563021719
2406.800000000001,-0.008126484121193175,-19.4027932439086,-41.04557508250008
2422.6,-0.008751035989308075,-19.27290173902141,-57.33080934052042
2438.400000000001,-0.00886783611357507,-19.15321504353413,-73.59043205447
2454.2,-0.009861703279825591,-19.03542139018349,-89.84644138360169
2470,-0.00873047840947574,-18.9228305808412,-106.1240157437601
2485.800000000001,-0.009580673801338292,-18.81340971651004,-122.3673260425266
2501.6,-0.00947467234578926,-18.69603101833533,-138.6558727673385
2517.400000000001,-0.009796084590903253,-18.58036580690205,-154.9213936473282
2533.2,-0.009077793141120722,-18.46919600615423,-171.190713512559
2549,-0.009822648452277411,-18.35900620228866,172.5144782153971
2564.800000000001,-0.009577590575901129,-18.2076784620618,156.199975104985
2580.6,-0.009926320738412923,-18.11485938776767,139.9702118308826
2596.400000000001,-0.01009218041623749,-18.0017936297092,123.6813952980937
2612.2,-0.009517154945850585,-17.88556919673671,107.3927163513673
2628,-0.0094205374334007,-17.73618217518062,91.04307162034664
2643.800000000001,-0.01000550957869449,-17.6270669717857,74.79377327429043
2659.6,-0.00979819437811544,-17.48927674641783,58.46786249300152
2675.400000000001,-0.009440579025447133,-17.35733868077062,42.17882993782413
2691.2,-0.009742798368771269,-17.18436025071962,25.7704252556042
2707,-0.009670153716366547,-17.14321702963823,9.587520586635652
2722.800000000001,-0.01024613879413695,-16.96963804241911,-6.735001638357869
2738.6,-0.009748478184998178,-16.82729080385554,-23.05695813559347
2754.400000000001,-0.01086994928782644,-16.70135488887931,-39.34508868836888
2770.2,-0.01042310939123443,-16.5541513189519,-55.7572431271783
2786,-0.01037092441153169,-16.43108876724893,-72.02363113178805
2801.800000000001,-0.01025818477371949,-16.28757246012278,-88.27972011513629
2817.6,-0.0107849316223005,-16.1559513076051,-104.6463081249367
2833.400000000001,-0.01089940622634015,-16.1189773542945,-120.8558551257952
2849.2,-0.01079074407200984,-15.93871656881252,-137.2157877710941
2865,-0.009977912064309908,-15.82836240126665,-153.5481909758644
2880.800000000001,-0.01099656161100626,-15.67068032776848,-169.8557099293743
2896.6,-0.01068980760368234,-15.5382986587127,173.7811384144725
2912.400000000001,-0.01061093328810626,-15.32413158015618,157.368711526901
2928.2,-0.0108687230434394,-15.23574195905819,141.0602031339518
2944,-0.01061453224415542,-15.06646969994183,124.6888634074736
2959.800000000001,-0.01183409013364409,-14.90352587487564,108.2909213901634
2975.6,-0.01107231073511392,-14.75201795463231,91.91666111878806
2991.400000000001,-0.01038577192824117,-14.59414049804246,75.53668868135
3007.2,-0.01216692118551887,-14.4375344853321,59.14278597323197
3023,-0.0106098545889437,-14.2701162378674,42.748011855142
3038.800000000001,-0.01079361936469723,-14.13154303634465,26.36648555029981
3054.6,-0.01193072076668695,-13.89487988126715,9.911947238366508
3070.400000000001,-0.01125196608412007,-13.79297049674083,-6.33779162466625
3086.2,-0.01058549817326168,-13.51615797694929,-23.07684392768203
3102,-0.0121198598304144,-13.41793382947118,-39.46771449032313
3117.800000000001,-0.01142305351270247,-13.14762180566547,-55.83013571499246
3133.6,-0.01190486788462367,-12.84099729287012,-72.85809096702886
3149.400000000001,-0.01178283833265087,-12.87655102084905,-88.76350188611919
3165.2,-0.01160000317317412,-12.799450532255,-104.8123030900408
3181,-0.01152541800210239,-12.65390092593831,-120.9491240090893
3196.800000000001,-0.01128110136601865,-12.44347470251045,-137.7244350587407
3212.6,-0.01291187320853995,-11.77365136065554,-155.3716365427112
3228.400000000001,-0.01169992111525818,-12.0609732786797,-170.6895210548645
3244.2,-0.01203017913182595,-11.15513839600844,171.1908537778012
3260,-0.01187608163549117,-11.58437377133482,155.9962268106711
3275.800000000001,-0.01252208385718254,-10.89094725437881,138.627819568708
3291.6,-0.01179942238447088,-10.59934894689195,121.444755074993
3307.400000000001,-0.01211700850929591,-10.38839580910658,105.1531125671079
3323.2,-0.01221941239926339,-9.912026227295899,87.75249785019979
3339,-0.01239750511036309,-9.742044131829289,71.39512128595008
3354.800000000001,-0.01192351267698147,-9.467682631934984,54.43266107728742
3370.6,-0.01247358783650052,-9.183163299160661,37.37155846889979
3386.400000000001,-0.01196042282003815,-8.761055520943945,20.21883874775121
3402.2,-0.01145369659833167,-8.266709433760081,2.660707843912793
3418,-0.01218538349686439,-7.648897131767779,-14.98419779721511
3433.800000000001,-0.01230561100161474,-7.579960133449179,-31.65713587139168
3449.6,-0.0124207036863202,-0.163986446667945,-117.4270511234105
3465.400000000001,-0.01245488316900823,-0.1441034790790363,-134.0165842623319
3481.2,-0.01279956226871787,-0.1410386976282948,-150.0438018056159
3497,-0.01306482538977385,-0.1399623347195493,-166.0146679895626
3512.800000000001,-0.01372166953372345,-0.1357375355968088,178.0196774444609
3528.6,-0.01309186998782317,-0.1346401415389407,162.106405131909
3544.400000000001,-0.01291057964449932,-0.1322321012078754,146.0161368586279
3560.2,-0.0132523538455762,-0.1305017668789015,130.1630172625348
3576,-0.01282494041805037,-0.1299423919796103,114.0684848561296
3591.800000000001,-0.01372365361988541,-0.1279167528153848,98.00802133200006
3607.6,-0.01291269700047165,-0.1259196060125133,82.07017927665956
3623.400000000001,-0.01371350356927233,-0.1248455767701693,66.04938061548891
3639.2,-0.01324506026602891,-0.1249197742295151,50.13492374261219
3655,-0.01343486403976158,-0.1231878869485316,34.01552006341674
3670.800000000001,-0.01258932883150222,-0.1229726179985604,18.06349799858035
3686.6,-0.01353934595865733,-0.1245114102487236,1.901616795872326
3702.400000000001,-0.01324070207621159,-0.1233718732284936,-14.09059687448189
3718.2,-0.01315576111441315,-0.1219607519623198,-30.15865552619803
3734,-0.01302356427797222,-0.120678877165062,-46.18306593361618
3749.800000000001,-0.01344117091888514,-0.1195024302874934,-62.23911656914977
3765.6,-0.0141129255794082,-0.1192377592438525,-78.30158158261816
3781.400000000001,-0.01402473539060543,-0.1187694959852212,-94.31134991770486
3797.2,-0.01474580983712474,-0.1165199383110093,-110.4697935010306
3813,-0.0143496122366684,-0.1165675464568017,-126.2670126072446
3828.800000000001,-0.01485778737798021,-0.1168911643318686,-142.3702772925743
3844.6,-0.01416744431162869,-0.1158234159791838,-158.5685578884124
3860.400000000001,-0.01399276521024104,-0.1149544037682335,-174.5054523826447
3876.2,-0.01415990365704128,-0.1143311895237535,169.3867474960911
3892,-0.01422847458990089,-0.1127958757751895,153.2320169624221
3907.800000000001,-0.01452149106371563,-0.1140798855843225,137.2309755303524
3923.6,-0.01429544075788345,-0.1140526707828608,121.1159002495266
3939.400000000001,-0.01419088293487566,-0.1131096083936858,104.9601427602909
3955.2,-0.01445171832489947,-0.1113028654137263,89.22143117745102
3971,-0.01479077575565341,-0.1119671857451748,72.9413806905404
3986.800000000001,-0.0149462045730062,-0.1110991207099337,56.84931667120217
4002.6,-0.01423558912041033,-0.1107936406459677,40.81006688653949
4018.400000000001,-0.01433060394738435,-0.1103350131451549,24.68986043843069
4034.2,-0.01406077774594155,-0.1098815863708838,8.714259513786155
4050,-0.01434504427031299,-0.1090275049295516,-7.417879658844013
4065.800000000001,-0.01539135462087273,-0.1083633661345236,-23.40933824601394
4081.6,-0.01471291855311471,-0.1082255238446137,-39.61213631048393
4097.400000000001,-0.01521868830924365,-0.1061251274927095,-55.45141020750706
4113.200000000001,-0.01400088245764923,-0.1060987424022521,-71.81953883726592
4129.000000000001,-0.01428452582576572,-0.1064263382772097,-87.6056590204757
4144.800000000001,-0.01580743520232778,-0.1047587366704305,-103.7932422122708
4160.6,-0.01500121056244888,-0.1056852827515867,-119.8941195486074
4176.400000000001,-0.01561333329573402,-0.1054193838461678,-135.812302391821
4192.200000000001,-0.01541379285923183,-0.1056350240213608,-152.088839419522
4208.000000000001,-0.01499760214828336,-0.1057066137978052,-168.1325393129048
4223.8,-0.01503842008405717,-0.1064495409928368,175.8531996796432
4239.6,-0.0167596567883847,-0.1070275589234202,159.8820187460729
4255.400000000001,-0.01620970279846627,-0.1080478017697381,143.8637291726097
4271.200000000001,-0.01657734229650161,-0.1082708555461979,127.8392575070827
4287.000000000001,-0.01536066237897653,-0.1100295803327639,111.7985020336288
4302.800000000001,-0.01574359140238901,-0.1105109827914544,95.7351191913173
4318.600000000001,-0.01609978744182916,-0.111523091823928,79.7124270664123
4334.400000000001,-0.01774213667071934,-0.1124313965702411,63.74370057752139
4350.200000000001,-0.01629583772467186,-0.1124302482759477,47.50686495825916
4366.000000000001,-0.01581227398287137,-0.1134961027243983,31.60226610955747
4381.800000000001,-0.01564418151128097,-0.1155775134136684,15.62703075162814
4397.600000000001,-0.01493284174542877,-0.1177287119269127,-0.5194586861010635
4413.400000000001,-0.01547420055301788,-0.1204051225903651,-16.28620996477462
4429.200000000001,-0.01661987494645554,-0.1214877654182844,-32.40878130411501
4445.000000000001,-0.01623127659710572,-0.1223240507172955,-48.54016801237752
4460.800000000001,-0.01612400134350338,-0.1252394743612436,-64.44896780462892
4476.600000000001,-0.01585838823014375,-0.1281195659977329,-80.44548074336225
