#Digilent WaveForms Network Analyzer - Bode
#Device Name: Discovery2
#Serial Number: SN:210321B027D8
#Date Time: 2023-06-12 12:28:32.890
#Start: 8000 Hz
#Stop: 100 Hz
#Steps: 501
#Wavegen: Wavegen C1
#Amplification: 1 X
#Settle: 10 ms
#MinPeriods: 16 
#Channel: Channel 1
#Range: 5.47316 V
#Offset: 0.000111453 V
#Relative: no
#Channel: Channel 2
#Range: 5.4696 V
#Offset: 0.000228279 V
#Relative: yes

Frequency (Hz),Channel 1 Magnitude (dB),Channel 2 Magnitude (dB),Channel 2 Phase (deg)
100,-0.006037664922040358,-50.4588430292394,-131.6314015295663
115.8,-0.005179997604924743,-49.17786261663679,-129.5780748697319
131.6,-0.004575000272379188,-48.07524533730256,-141.978197080903
147.4,-0.004204047802324264,-47.04199647321371,-102.8203184908698
163.2,-0.00433848388683168,-46.12964721408687,-115.2269679426117
179,-0.004053603434253334,-45.28372863027396,-117.5499476831141
194.8,-0.003693859173013463,-44.53562047928816,-96.78874563854028
210.6,-0.003755516675352555,-43.81291261241121,-85.7334744913976
226.4,-0.003784214034322129,-43.16877944711599,-54.05958233415134
242.2,-0.003735417948396598,-42.590601595008,-48.99812036227886
258.0000000000001,-0.003439431744023688,-42.02126914454915,-11.44929639886548
273.8000000000001,-0.003827115876041285,-41.50608425698173,-12.67090485230977
289.6,-0.0035370754122095,-41.01685498090014,30.10006215165777
305.4,-0.003809488188130945,-40.5282120106089,26.32674405761418
321.2,-0.003510735224113693,-40.10501942299123,44.41543574505594
337.0000000000001,-0.003639232363517597,-39.70779967892815,64.34617034551475
352.8000000000001,-0.003577194716986101,-39.30173146357941,84.29744770293226
368.6000000000001,-0.003525558232014082,-38.94417955364363,92.84843938304932
384.4,-0.003551473224795772,-38.57486346523909,112.3316796099458
400.2,-0.003607187822434708,-38.23077540069045,134.4404174725484
416.0000000000001,-0.003590644873673679,-37.89000916380188,139.8545741062891
431.8000000000001,-0.003545755691362527,-37.57220299653729,156.2205448065715
447.6000000000001,-0.003606989420933562,-37.2448102240057,175.7744472722939
463.4,-0.003778613472540538,-36.93620082351938,-172.2962644949194
479.2,-0.003760017277844147,-36.65227059249581,-152.4816965091172
495.0000000000001,-0.003545813313058574,-36.37348654134814,-140.2920737613427
510.8000000000001,-0.003850292410696332,-36.06723847327062,-121.2146502865643
526.6000000000001,-0.00351752701326083,-35.80452247511497,-105.9672969334477
542.4000000000001,-0.00355473234714868,-35.51862315161161,-90.83488316203997
558.2,-0.00349546165011551,-35.24314045972677,-76.43566762114328
574.0000000000001,-0.003598392909519306,-35.00902054482778,-57.66238429044002
589.8000000000001,-0.003374252296096936,-34.75116762248686,-41.93105816013345
605.6000000000001,-0.003690391886855935,-34.49237910332425,-25.09596941661835
621.4000000000001,-0.003634615469636756,-34.2793293364404,-9.514475927479477
637.2000000000002,-0.003856181604021209,-34.05007421342776,7.340583041261347
653.0000000000001,-0.003721867098110308,-33.81921445112759,23.57246306461907
668.8000000000001,-0.00348702135644893,-33.60567032045986,40.28990712569462
684.6000000000001,-0.003854720480101035,-33.38195396419699,56.47936204449472
700.4000000000001,-0.003704352012378286,-33.17127795612939,72.8236470332412
716.2000000000002,-0.003756595462815749,-32.98631033530413,89.04686094950011
732.0000000000001,-0.004038434049706303,-32.78490844285662,105.6801122412337
747.8000000000001,-0.003851572335934382,-32.59425252584209,121.6214366904134
763.6000000000001,-0.005029504203277051,-32.41704162374484,137.5965198550578
779.4000000000001,-0.004737016052465341,-32.2278524251906,154.0236011379484
795.2000000000002,-0.00415485198432028,-32.03916450397068,170.131236473216
811.0000000000001,-0.004367904050365564,-31.8614571830659,-173.6535394999571
826.8000000000001,-0.004540381708645855,-31.6777963781526,-157.4357617438205
842.6000000000001,-0.004218022069869843,-31.49870142018471,-141.510522290934
858.4000000000001,-0.004348419172393815,-31.32814395953154,-125.3296523862294
874.2000000000002,-0.004504929372888459,-31.14908623386459,-109.1242326234
890.0000000000001,-0.004856859994191108,-30.98684543320395,-92.87960718837301
905.8000000000001,-0.004126018129290352,-30.80751450831061,-76.76445051137111
921.6000000000001,-0.004457322954098778,-30.63328922144303,-60.69655984356685
937.4000000000001,-0.00392929874279845,-30.47807022749609,-44.44177437736407
953.2000000000002,-0.004334388108583493,-30.31533648950434,-28.15902349415112
969.0000000000001,-0.004585937932760079,-30.16148476406255,-11.98276807956964
984.8000000000001,-0.004628450714715108,-30.00597569273238,4.286288412189622
1000.6,-0.00440582348605933,-29.84264074940086,20.57750799630247
1016.4,-0.004119920391762401,-29.69250873095288,36.90236230169465
1032.2,-0.004209432449991684,-29.54631875428575,53.09103338386622
1048,-0.004928033517051591,-29.39639725041706,69.32727958959518
1063.8,-0.004916330188497254,-29.26135790336684,85.56140805915031
1079.6,-0.004431028266642467,-29.10955296664747,101.8410486675557
1095.4,-0.004731214384342543,-28.98760609789134,118.1863438761382
1111.2,-0.004975254893735076,-28.83771318787355,134.3361632381237
1127,-0.00518522200349782,-28.7025043392173,150.5473105337481
1142.8,-0.005499319330172846,-28.56716590644155,166.7115621683454
1158.6,-0.005082491186938309,-28.4409067175375,-177.0683804502202
1174.4,-0.005167161525119666,-28.29470030836409,-160.9124190110368
1190.2,-0.004737515646319132,-28.16866199286798,-144.686954712487
1206,-0.005262894125400972,-28.03722633805641,-128.4923132474369
1221.8,-0.005461671178677717,-27.8873877615662,-112.3230761562311
1237.6,-0.005322903185510023,-27.76391659453175,-96.15144570883237
1253.4,-0.005040518305625645,-27.63640216826426,-79.98760905918149
1269.2,-0.005259848720301982,-27.50326120931745,-63.77724934505996
1285,-0.00547837768668463,-27.36704286795619,-47.50713623094816
1300.8,-0.005112047584556494,-27.24237796255453,-31.32609363414225
1316.6,-0.005066799589115569,-27.1188415765603,-15.12654543467123
1332.4,-0.005775650184999556,-26.98024168407965,1.145501181744847
1348.2,-0.005615195694603175,-26.86138827410925,17.34740279352333
1364,-0.005919313854524862,-26.73044260531317,33.59913373300632
1379.8,-0.005370195273606066,-26.60931410846669,49.89821887071821
1395.6,-0.006282835736286931,-26.48320568258645,66.09962488659647
1411.4,-0.005745080101178745,-26.37740970438445,82.37032992199468
1427.2,-0.00542996300811427,-26.25754710576242,98.58483599467007
1443,-0.005630521718046134,-26.13234342610759,114.8020970069705
1458.8,-0.005412876575181313,-26.02001956274592,131.0859127103
1474.6,-0.0055656191820425,-25.90413942681557,147.2934365039073
1490.4,-0.005766801277315452,-25.78905313750004,163.4934822020556
1506.2,-0.006243964282510958,-25.67774593257108,179.7115074489786
1522,-0.006143027610961733,-25.56070838110754,-164.0966854535371
1537.8,-0.005839218296394624,-25.44686742677868,-147.8967286849221
1553.6,-0.005612964447179349,-25.32505791235246,-131.6560980537646
1569.4,-0.006229460095277519,-25.21464916985978,-115.4931150604071
1585.2,-0.005821031709994685,-25.10128667607064,-99.26353026985309
1601,-0.00641274829357315,-24.99288514495566,-83.11569672263772
1616.8,-0.006744489712518877,-24.87017692123365,-66.90302581463393
1632.6,-0.00672505596028181,-24.74762447000954,-50.64273556728445
1648.4,-0.006106018084305176,-24.63217482910694,-34.46436149667589
1664.2,-0.006631837024572263,-24.53385227516373,-18.22775597014301
1680,-0.006617329247328679,-24.42105295990746,-2.028506438469608
1695.8,-0.006362881766975026,-24.30211840643987,14.29594487987977
1711.6,-0.006449302866929246,-24.18425447930439,30.48309831865464
1727.4,-0.006067389872126195,-24.07025620168585,46.74621769444159
1743.2,-0.005725939936448037,-23.95724672500659,62.99123742585145
1759,-0.00716469540730927,-23.85723594103149,79.24962597704176
1774.8,-0.007113050613845848,-23.73933892681845,95.49494881096318
1790.6,-0.00599495130039418,-23.64865340818822,111.7198174757625
1806.4,-0.006764618738694159,-23.53931998322262,127.9512431857694
1822.2,-0.006728608474347458,-23.42899184046096,144.1718636309111
1838,-0.006844955362601709,-23.31302239695045,160.423447779039
1853.8,-0.00707561063668889,-23.22015612161255,176.6305557511659
1869.6,-0.007128093802685297,-23.10221411885295,-167.1552911730193
1885.4,-0.008062972935230572,-23.00365964839014,-150.9568847498684
1901.2,-0.006716951223280818,-22.8909252909739,-134.7185021653469
1917,-0.007785535071541855,-22.78334294140689,-118.5199859684801
1932.8,-0.006505982805223661,-22.68491675544496,-102.2962572821657
1948.6,-0.007496138924662742,-22.56401331953344,-86.09961886361771
1964.4,-0.007319860568984651,-22.45955822196126,-69.86609255371297
1980.2,-0.007831041638369073,-22.35568053146136,-53.62460910021309
1996,-0.00750388224509537,-22.24528384141351,-37.39200717067346
2011.8,-0.007083234559124752,-22.13822762063007,-21.17009529067482
2027.6,-0.006905204574649527,-21.90442561298091,-4.913405804853392
2043.4,-0.007875681426222841,-5.784215288304955,11.33362813943761
2059.2,-0.007884586905449572,-5.618117416686913,27.58217729820056
2075,-0.007608978978158218,-5.472953586099271,43.82571369440687
2090.8,-0.007997500539366461,-5.282386185203314,60.0542333539399
2106.6,-0.007799370071725538,-5.142102268100514,76.28477434841966
2122.400000000001,-0.007547043778391741,-4.98337338935724,92.56653153679113
2138.2,-0.007996727090270356,-4.814812094414812,108.8240140526861
2154,-0.008197040914317135,-4.64548178410587,125.0674370744795
2169.8,-0.007687810685066911,-4.539009596612911,141.3316863858142
2185.6,-0.007567171077489727,-4.382404320883952,157.5297827255695
2201.400000000001,-0.008134380345979183,-4.223138808032528,173.8029870571156
2217.2,-0.0070024280981882,-4.072507844934748,-169.9466098562337
2233,-0.008254389468963709,-3.946230408393805,-153.7496798783574
2248.800000000001,-0.008691444051825967,-3.804031004286226,-137.4826427202051
2264.6,-0.007568018855988829,-3.675638081206831,-121.2583865763327
2280.400000000001,-0.008414043903273015,-3.542470737982697,-105.0132372107923
2296.2,-0.008075380662714364,-3.416649718227722,-88.82785420676285
2312,-0.009045286156342638,-3.283646274650219,-72.56387843508745
2327.800000000001,-0.007892295951507131,-3.139935002889186,-56.31136163008635
2343.6,-0.008334934675098986,-3.045651794434076,-40.06472981004448
2359.400000000001,-0.008771671778614046,-2.917541659016303,-23.77724546203185
2375.2,-0.008283759777914748,-2.817336125295922,-7.563086711056192
2391,-0.009510143984203259,-2.709435978207368,8.722435662115332
2406.800000000001,-0.008484795894599249,-2.578558649515374,24.9473622224834
2422.6,-0.009307061882750949,-2.466139638199358,41.23330609839805
2438.400000000001,-0.008528837166760247,-2.381082172600007,57.47367924607139
2454.2,-0.009195293234842267,-2.29212642766575,73.77906176718587
2470,-0.00897433094513808,-2.172667983974421,90.06176058937774
2485.800000000001,-0.00987439905745072,-2.089990584274869,106.2959507939877
2501.6,-0.009530639093181515,-1.99678209846139,122.6038159640444
2517.400000000001,-0.009126683520049894,-1.907584971849253,138.8115245361447
2533.2,-0.008902133748438209,-1.829479280514748,155.1261985598558
2549,-0.009229772599350259,-1.734639350864506,171.3490811209953
2564.800000000001,-0.008609950061576993,-1.679879600340922,-172.3596328807811
2580.6,-0.009733554442739711,-1.5956965486706,-156.1043632272562
2596.400000000001,-0.009105850473799249,-1.521443476569573,-139.8296971704972
2612.2,-0.009904701357717479,-1.454232402422595,-123.5788062332441
2628,-0.008851131550379627,-1.372618866889425,-107.3113997762089
2643.800000000001,-0.01018401218712669,-1.312428468222313,-91.0190961163668
2659.6,-0.009286404884911642,-1.263047389847894,-74.74513974881883
2675.400000000001,-0.008882626173668003,-1.183815314593767,-58.51786945591848
2691.2,-0.01049076855154214,-1.133340630976333,-42.22357482336542
2707,-0.009495494294559462,-1.082819028951117,-25.92677250585287
2722.800000000001,-0.01066418228611502,-1.032425464005489,-9.606622512135383
2738.6,-0.009908222274210642,-0.9837105536134462,6.642401741795339
2754.400000000001,-0.01056187241248688,-0.9351611052861931,22.93714672341439
2770.2,-0.01069092755617512,-0.890063243368636,39.30831236110687
2786,-0.01070000223988822,-0.8454745130442277,55.58624924325386
2801.800000000001,-0.01113133864247255,-0.7993352141787897,71.89263759722358
2817.6,-0.0103897628451837,-0.7639988896024531,88.23888070960804
2833.400000000001,-0.01135102983990296,-0.7220294476808495,104.4977100584828
2849.2,-0.01090867416671042,-0.6878115931605921,120.6888433622721
2865,-0.01020109571442875,-0.6582795280969003,137.1905406081243
2880.800000000001,-0.01076777685966201,-0.6325789049140007,153.4920834597735
2896.6,-0.01104724558109214,-0.5991225050982518,169.7518129206105
2912.400000000001,-0.01083461438344743,-0.5750387353658714,-173.8777016528103
2928.2,-0.01131507224251174,-0.544162771686343,-157.7453943307699
2944,-0.01057946527375192,-0.5227379807904402,-141.2854935211473
2959.800000000001,-0.01065433804640206,-0.4893347539479486,-124.924207087197
2975.6,-0.01097639545557612,-0.4675375454735442,-108.7209343504797
2991.400000000001,-0.01076334801245107,-0.4462349806164535,-92.32730376748133
3007.2,-0.0115428990032483,-0.4257383128917435,-76.0384043800002
3023,-0.01125577528522028,-0.404630597473756,-59.58626827997415
3038.800000000001,-0.01067301709048843,-0.3877839748829592,-43.24799701207298
3054.6,-0.01172253637498962,-0.3678337903444254,-26.89345064610415
3070.400000000001,-0.01166022926748996,-0.3504100966299102,-10.52916002856364
3086.2,-0.01173092327342874,-0.3327076130730102,5.849521062299179
3102,-0.01209120769403221,-0.3202486617272386,22.23877612698943
3117.800000000001,-0.0121460454901287,-0.3076022913743089,38.62865323103969
3133.6,-0.0120175809999533,-0.2921787630848454,55.03416577515325
3149.400000000001,-0.01184509851335331,-0.2786660430986762,71.37029463436129
3165.2,-0.01175269739008708,-0.2721520546254906,87.88949657845824
3181,-0.01226785780377072,-0.2559876545328742,104.1311627639569
3196.800000000001,-0.01268693972164748,-0.2423382239512821,120.7289667338022
3212.6,-0.01215027655528532,-0.2383190958757331,137.1572100443037
3228.400000000001,-0.01144503174872674,-0.2289732603434771,153.7123430342807
3244.2,-0.01187324378005805,-0.2195341278622676,169.9960350597308
3260,-0.01222255361185403,-0.2113453846670778,-173.2569974982511
3275.800000000001,-0.01226430739442488,-0.203226530463907,-156.3249456366026
3291.6,-0.01165244793170988,-0.1960443455284545,-140.6181553720572
3307.400000000001,-0.01192038800630618,-0.1870413787001875,-123.9805118181781
3323.2,-0.01267337789301527,-0.1823406381987326,-108.0234407768103
3339,-0.01230902593496785,-0.1733724150117734,-91.8061101461315
3354.800000000001,-0.01252248603613886,-0.173077694599964,-74.23060959066717
3370.6,-0.01330823110015628,-0.1654505179674618,-57.8840203716108
3386.400000000001,-0.01305984130453765,-0.163188239295938,-40.99225756634145
3402.2,-0.01272158657637049,-0.1588275976056134,-23.90811401605695
3418,-0.01257834633100031,-0.1535861565417823,-8.255044631526422
3433.800000000001,-0.01256949565343378,-0.1504946372880274,9.264918756692452
3449.6,-0.01367055890377535,-0.1474711245518528,26.75104954262089
3465.400000000001,-0.01272716195976589,-0.1429063915126793,43.36133915663514
3481.2,-0.01245962887396271,-0.1420280035772861,60.54115450822351
3497,-0.0136250470520892,-0.1381852285508811,78.07077592603804
3512.800000000001,-0.0141949169520292,-0.1354983400947112,96.62472046444873
3528.6,-0.01354047732246789,-0.133345095889449,111.5816125246535
3544.400000000001,-0.01327353513653023,-0.1333172553239249,-160.8758527458196
3560.2,-0.01398682801423585,-0.1307501863772124,-144.3743692106505
3576,-0.01395326296277232,-0.1279752359136212,-128.3600265846997
3591.800000000001,-0.01312237525392575,-0.1284315623491535,-112.3508044617264
3607.6,-0.0136931646598052,-0.1276734131516468,-96.40292582040651
3623.400000000001,-0.01394656018365841,-0.1252607495598978,-80.38978892962612
3639.2,-0.0133815218684759,-0.126935129501255,-64.44426406963608
3655,-0.01317587070112525,-0.1244893384394813,-48.53487548876238
3670.800000000001,-0.01312456729440151,-0.1232934003342268,-32.46586541359953
3686.6,-0.01428803792674885,-0.1227195287448839,-16.48474941444087
3702.400000000001,-0.01364588168362124,-0.1231128614280487,-0.4887723339865403
3718.2,-0.01350416858278775,-0.1219642899827226,15.60047988169364
3734,-0.01332390941429557,-0.1205093996240417,31.57109745217355
3749.800000000001,-0.01383674318477982,-0.1199157599270483,47.71152542993816
3765.6,-0.01466621614783536,-0.1186635997114891,63.60670663913565
3781.400000000001,-0.01474873306282723,-0.1184158979268295,79.64910411037388
3797.2,-0.01425260953567296,-0.1173066910660526,95.82649992271612
3813,-0.01439140501396251,-0.1168993413115005,111.7558051950137
3828.800000000001,-0.01500782600670251,-0.1167285445757432,127.8257371225714
3844.6,-0.01475620280317557,-0.1141250839865641,143.8333331420572
3860.400000000001,-0.01426120772183453,-0.1145883682593938,159.909266944224
3876.2,-0.01426605780227715,-0.1127323072955162,175.9463091076732
3892,-0.0145918401751311,-0.1131392162572908,-168.0263316827618
3907.800000000001,-0.01538595080266166,-0.1138334672847227,-151.9498051364387
3923.6,-0.01496564060637652,-0.1132621032875823,-135.7764494398256
3939.400000000001,-0.01477048648776083,-0.1139965518823972,-119.799299044506
3955.2,-0.01438042260700452,-0.112710086198009,-103.7933776338867
3971,-0.01418080167090871,-0.1121192503851056,-87.79541576725406
3986.800000000001,-0.01515931790080992,-0.1109526135569177,-71.62673513919023
4002.6,-0.01512742313100058,-0.1103813828838911,-55.71045952041172
4018.400000000001,-0.01389349858163627,-0.1108408915419917,-39.37297935523061
4034.2,-0.0142706545965318,-0.1101142766915384,-23.40149357355724
4050,-0.01470116955165061,-0.1099666206092849,-7.461034220870951
4065.800000000001,-0.01566649079077746,-0.1094891548456259,8.663488368156461
4081.6,-0.01598316622511561,-0.1071304705729777,24.77550149736126
4097.400000000001,-0.01519167743123548,-0.1050817424974129,40.83902627459646
4113.200000000001,-0.01543037550935894,-0.1051354763449185,56.89535012504837
4129.000000000001,-0.01522259017523796,-0.1048411020255857,72.90217271106471
4144.800000000001,-0.01629378804568752,-0.1054892915269641,88.91381553671314
4160.6,-0.01602295021579608,-0.1056522159129496,105.1769272950398
4176.400000000001,-0.01586073239623416,-0.1050133710863554,121.1670044668032
4192.200000000001,-0.01576632350428004,-0.105562447212834,137.2002901989707
4208.000000000001,-0.01572625593631141,-0.1058380204019808,153.1693866823508
4223.8,-0.01582207946393783,-0.1063875601090728,169.3854169952298
4239.6,-0.01706081350878103,-0.1077907336556659,-174.522567613928
4255.400000000001,-0.0165150593007794,-0.1076295887743431,-158.4556612376691
4271.200000000001,-0.01599115114957218,-0.1084085538665564,-142.4919022544373
4287.000000000001,-0.01645900549447043,-0.1084014726068706,-126.4743722819368
4302.800000000001,-0.01642201212928001,-0.1094943320504254,-110.4055748268514
4318.600000000001,-0.01664315702310344,-0.1105469960679625,-94.33510947092012
4334.400000000001,-0.01683760366097222,-0.112215409860532,-78.26552472671464
4350.200000000001,-0.016117340491999,-0.1140979508771587,-62.20404172153684
4366.000000000001,-0.01615860139011072,-0.1144695668094391,-46.16832158325433
4381.800000000001,-0.01600775730504383,-0.1152794815566813,-30.05942673932066
4397.600000000001,-0.0154403222594828,-0.1179424531744123,-14.10024981828876
4413.400000000001,-0.01574812244170816,-0.1194335509209349,2.022775491952656
4429.200000000001,-0.01724558520794362,-0.1209216037544863,17.92426902857502
4445.000000000001,-0.0168224704838217,-0.1224281942369868,34.00205917870978
4460.800000000001,-0.01650556370402173,-0.1253261179580642,49.94307321660754
4476.600000000001,-0.01599765928115267,-0.1285576117692793,66.12252743414361
