#Digilent WaveForms Network Analyzer - Bode
#Device Name: Discovery2
#Serial Number: SN:210321B027D8
#Date Time: 2023-06-12 12:23:15.423
#Start: 100 Hz
#Stop: 8000 Hz
#Steps: 501
#Wavegen: Wavegen C1
#Amplification: 1 X
#Settle: 10 ms
#MinPeriods: 16 
#Channel: Channel 1
#Range: 5.47316 V
#Offset: 0.000111453 V
#Relative: no
#Channel: Channel 2
#Range: 5.4696 V
#Offset: 0.000228279 V
#Relative: yes

Frequency (Hz),Channel 1 Magnitude (dB),Channel 2 Magnitude (dB),Channel 2 Phase (deg)
100,-0.005681578464479575,-50.86320390050653,170.8918424595463
115.8,-0.005192813358084153,-49.52128888919908,153.2625127622268
131.6,-0.004744007177211389,-48.33114262371195,136.0323640945964
147.4,-0.004038799740062993,-47.23565113249536,119.7390769342048
163.2,-0.004158057351545008,-46.20397795429258,102.9638933942724
179,-0.003845300515068391,-45.35579868750783,87.2247828735002
194.8,-0.003755029102015142,-44.60273300735171,70.76453957551681
210.6,-0.003758997228496593,-43.87766007283935,54.49717923411062
226.4,-0.003641086563028017,-43.2301579787915,38.39228260789683
242.2,-0.003178317259843833,-42.62064064124858,22.40165130431061
258.0000000000001,-0.003351932928422301,-42.03712453103342,6.278024985240597
273.8000000000001,-0.003327813318706941,-41.47911502472728,-10.03455002902573
289.6,-0.003419987861263539,-41.01444874478332,-25.60263690644032
305.4,-0.003657691807174512,-40.6148955655235,-41.91836697405197
321.2,-0.003481406789640335,-40.15808085604891,-57.74815985479531
337.0000000000001,-0.003538905297179717,-39.75583781723608,-73.76812258534093
352.8000000000001,-0.003256628395311336,-39.36072409491179,-90.28507289457806
368.6000000000001,-0.003587299802946059,-39.03980591799322,-106.3486697926462
384.4,-0.003346041965812575,-38.69619926454453,-122.6266568926155
400.2,-0.003245650004561652,-38.3321338532648,-139.0585102370183
416.0000000000001,-0.003496499256990893,-38.03936552657728,-155.3770276249285
431.8000000000001,-0.003378134230012733,-37.73235242923229,-171.8483943910069
447.6000000000001,-0.003440698557129014,-37.40138414752272,171.6654012188669
463.4,-0.003659740963947272,-37.09725868488824,155.2062849696447
479.2,-0.003372634694887025,-36.83699404093484,138.9214984503992
495.0000000000001,-0.00316166345007121,-36.53458112750976,122.6160952828454
510.8000000000001,-0.003344645426220444,-36.20038631819504,106.2784415002923
526.6000000000001,-0.003185077503383746,-35.92491241329306,90.24141152949549
542.4000000000001,-0.003475672045338005,-35.64700742643546,73.78116332580251
558.2,-0.003601199949118577,-35.35725626483445,57.70790265719412
574.0000000000001,-0.003519106861151984,-35.08349912967611,41.31090603002771
589.8000000000001,-0.00284109861181556,-34.79878877539072,25.21587853547856
605.6000000000001,-0.003508574853905354,-34.57912260545408,9.146116442748456
621.4000000000001,-0.002814654414437655,-34.34218384597243,-7.488864865584473
637.2000000000002,-0.003355329852744381,-34.11381419521939,-23.36081635655007
653.0000000000001,-0.003536376179407759,-33.87081506115149,-39.34146181146835
668.8000000000001,-0.003390795507600415,-33.67149818277214,-55.62034710129342
684.6000000000001,-0.003381392910492732,-33.44035475937712,-71.61514515436561
700.4000000000001,-0.003843863204001695,-33.25446070760324,-87.77106783956619
716.2000000000002,-0.004010054726536716,-33.03244707656605,-104.1127862863446
732.0000000000001,-0.003606724038063605,-32.88919126946015,-120.3415205657407
747.8000000000001,-0.003916625011811206,-32.67655270789612,-136.4509368848778
763.6000000000001,-0.00387089355381829,-32.52803121413035,-152.5092109913526
779.4000000000001,-0.003763853843729051,-32.33328848505187,-169.1427423880206
795.2000000000002,-0.003858090183725598,-32.14052656721329,174.8186053074417
811.0000000000001,-0.003776531174052981,-31.95451029014449,158.3702639357626
826.8000000000001,-0.00396168547394063,-31.77424718989812,142.2134948495257
842.6000000000001,-0.003600860775771123,-31.63389626605898,125.7719612947966
858.4000000000001,-0.004132239888409087,-31.4475244949074,109.6005030553126
874.2000000000002,-0.003767605842546926,-31.29944135382699,93.35419721254189
890.0000000000001,-0.004210938336816268,-31.0970618108937,76.95763486019577
905.8000000000001,-0.004123931068719273,-30.91268758225751,60.84062766828756
921.6000000000001,-0.003985151126284515,-30.74705507852472,44.74066186567457
937.4000000000001,-0.004243221813923481,-30.57511234363942,28.48913590858658
953.2000000000002,-0.004259671637228709,-30.38535437511589,12.25959663181539
969.0000000000001,-0.004635725839771294,-30.23803825041117,-4.070655346704584
984.8000000000001,-0.003842256861620442,-30.04301964971187,-20.18252906725539
1000.6,-0.003851883732867786,-29.92371415603465,-36.16618644191546
1016.4,-0.004407674673141342,-29.7777486461308,-52.42483638896321
1032.2,-0.004359836180818237,-29.5997848236578,-68.37251069208465
1048,-0.004780026247525822,-29.48179491508776,-84.91706956763304
1063.8,-0.004720876140658928,-29.33950597598697,-101.0547884075763
1079.6,-0.005015773442978134,-29.21881420651598,-117.1643067311556
1095.4,-0.004639963985780335,-29.07857760517029,-133.4309920835091
1111.2,-0.00506911750045711,-28.93310976638988,-149.6490533483309
1127,-0.004433423038247387,-28.81102599011936,-165.9147448309745
1142.8,-0.005004794401149529,-28.65819227342951,177.8547122076135
1158.6,-0.004890189415564004,-28.56391807515382,161.5525283830639
1174.4,-0.004796626519043898,-28.400035540682,145.2944398529036
1190.2,-0.004724500134465305,-28.28207425306143,128.9296502875657
1206,-0.004922709754070626,-28.14014878832383,112.8274694015574
1221.8,-0.004865692657029255,-27.99876702069298,96.46795010880354
1237.6,-0.005226561995229831,-27.89092642180707,80.31030966424731
1253.4,-0.005210974347232054,-27.72959708855264,64.03363031024372
1269.2,-0.005416654886683227,-27.60646023391044,47.78492650927302
1285,-0.004968259226852246,-27.47982585117208,31.60373686421368
1300.8,-0.004631683135170995,-27.33154060620854,15.4094218843181
1316.6,-0.004709174146244518,-27.2164145752181,-0.8599546871699971
1332.4,-0.005310247439025913,-27.07864151481713,-16.98870004202467
1348.2,-0.005105724386224636,-26.95982028664133,-33.24986914236204
1364,-0.005102247907444119,-26.81612619158692,-49.40332555521408
1379.8,-0.005529550488035702,-26.70469294147457,-65.38554835498046
1395.6,-0.005620337592745936,-26.57625470870734,-81.71678256862972
1411.4,-0.005534235038892843,-26.44914342329082,-98.00127578999169
1427.2,-0.005259178981831766,-26.34817573064362,-114.1016221489846
1443,-0.005552007655468885,-26.22400241949016,-130.2925747423417
1458.8,-0.006189126450430134,-26.11730978633164,-146.57456683671
1474.6,-0.005860158328605659,-26.0096914380978,-162.7324973634063
1490.4,-0.005266884850911994,-25.88573733259608,-179.1229787401397
1506.2,-0.005782324067948215,-25.78193053195616,164.6510377664642
1522,-0.006616088394043152,-25.67647883091933,148.4467417439406
1537.8,-0.00526966604053168,-25.54002385862589,132.1293864488945
1553.6,-0.006130756129935372,-25.41201009244129,115.968870938755
1569.4,-0.006038841848703028,-25.3236464536982,99.6804800099035
1585.2,-0.005574246940323142,-25.19410310429283,83.47519438337488
1601,-0.006570071226818425,-25.07631259179373,67.19518183418022
1616.8,-0.006504817476969887,-24.96981201842786,50.91887921402162
1632.6,-0.005512292980829914,-24.8344870732883,34.66454323341429
1648.4,-0.00606647112839908,-24.72453854013962,18.45706205470632
1664.2,-0.006349808297395754,-24.61012679062433,2.184913933609094
1680,-0.006051889746802974,-24.50424858057896,-13.9551238935019
1695.8,-0.00580271400659387,-24.37709209235802,-30.12728633155156
1711.6,-0.006103360998360726,-24.25763343613764,-46.37650091498502
1727.4,-0.006029675912202217,-24.18179446350754,-62.506199976011
1743.2,-0.006724233408232258,-24.05998825412187,-78.82969716085674
1759,-0.006677985198182124,-23.94573952685163,-94.92078373379226
1774.8,-0.00607458183324686,-23.82562919535131,-111.1873707562506
1790.6,-0.00696707391927969,-23.74240952568375,-127.3708831546526
1806.4,-0.006736225291732113,-23.6161516206553,-143.5422969064432
1822.2,-0.006829362951048098,-23.50109195111918,-159.9082138010293
1838,-0.006042864595732467,-23.43223624840611,-176.1448007656277
1853.8,-0.007809434641919214,-23.3104249364618,167.5995211158844
1869.6,-0.007736665018967354,-23.19345930511024,151.4231253162274
1885.4,-0.007366788699721537,-23.08649840033123,135.0624339467797
1901.2,-0.007326514144445251,-22.98937345981336,118.9980598126007
1917,-0.007263893907017751,-22.88318631456231,102.742617126792
1932.8,-0.006399668667785911,-22.76775250001817,86.31947109408208
1948.6,-0.007340127208213174,-22.66660707807366,70.21009199338464
1964.4,-0.007158783171850874,-22.54417020369671,53.86042440022011
1980.2,-0.007205138936163257,-22.45457164779069,37.63750550308738
1996,-0.007611674830899598,-22.35124988479017,21.39622978968325
2011.8,-0.006318401963741811,-22.2267333790742,5.042317940958765
2027.6,-0.006723253408761014,-22.13518986166633,-10.99656433726583
2043.4,-0.007229410082456105,-22.00839328031892,-27.3029613150993
2059.2,-0.007329683769085575,-21.88689201025587,-43.55320805483611
2075,-0.0074695161745511,-21.77692360194538,-59.71672550154109
2090.8,-0.007650449447991859,-21.68245885314889,-75.99513049665437
2106.6,-0.007976340433546288,-21.57728399456686,-92.22003082407903
2122.400000000001,-0.007388265489034138,-21.4779866314773,-108.3591964354033
2138.2,-0.008049496593167938,-21.36380788149986,-124.6555454057651
2154,-0.00823966319669985,-21.23579071778227,-140.9725676832193
2169.8,-0.007629092528241102,-21.14464117193322,-157.1490714652585
2185.6,-0.007901518210112621,-21.04099834834637,-173.477701456599
2201.400000000001,-0.008679000213131515,-20.94981804771301,170.3148743395107
2217.2,-0.008189470150975951,-20.82759867276597,154.0273391806903
2233,-0.008154050686706008,-20.73550796798733,137.8495674636137
2248.800000000001,-0.008534908352384657,-20.61741901112067,121.5539598511405
2264.6,-0.008160633668832315,-20.48575303029897,105.3167257243904
2280.400000000001,-0.00866150615114876,-20.41140807241257,89.01517274685243
2296.2,-0.008360109733279858,-20.29376335374139,72.77622469055414
2312,-0.007954590490735752,-20.16424478610918,56.49990413046287
2327.800000000001,-0.007750481078888679,-20.06095472381724,40.23779900428282
2343.6,-0.00841725623996885,-19.92142521216108,23.959126732075
2359.400000000001,-0.00906246233014367,-19.82400526827249,7.65005074185766
2375.2,-0.008043807464673487,-19.68770123909058,-8.606970043829481
2391,-0.008988266027315527,-19.60795660854264,-24.83803729511905
2406.800000000001,-0.007886050925740894,-19.46089889918724,-41.08339344579362
2422.6,-0.00944613993469659,-19.36972864952508,-57.32394939789644
2438.400000000001,-0.00888570474236341,-19.247834601238,-73.56445790311396
2454.2,-0.009580827272486409,-19.13483567736715,-89.85297237011252
2470,-0.009533125687659301,-19.01476284636708,-106.1028048409479
2485.800000000001,-0.009521837879802509,-18.91065643893089,-122.3547685231938
2501.6,-0.008863290234290387,-18.78362543909101,-138.6438956970952
2517.400000000001,-0.009270655403496844,-18.67131544954637,-154.8946804679881
2533.2,-0.009284806781303886,-18.56424622428953,-171.1453593456876
2549,-0.00998946440947383,-18.45334432237025,172.5246114843105
2564.800000000001,-0.009779164536353078,-18.31617443053114,156.2733717011149
2580.6,-0.01003602007702914,-18.21561698194562,140.0124315391558
2596.400000000001,-0.009773132024561815,-18.07642762653713,123.6756836279603
2612.2,-0.01120818473672604,-17.98909247544295,107.4204946808257
2628,-0.009517188591295947,-17.84298186503199,91.10043209191548
2643.800000000001,-0.009822731342344021,-17.72197542955185,74.77608803482005
2659.6,-0.009412102767616365,-17.61878331671013,58.49151547801065
2675.400000000001,-0.009633764099449695,-17.48917139799278,42.17037040304452
2691.2,-0.01001210995777254,-17.36556885367536,25.86390192047655
2707,-0.01001369182774713,-17.27423116291022,9.620485690123367
2722.800000000001,-0.01002633323816804,-17.05144634891703,-6.734952494563961
2738.6,-0.01007701961101487,-16.95185452154945,-23.03207476306735
2754.400000000001,-0.01086644151679655,-16.79816236046459,-39.35451071924264
2770.2,-0.01061321551413964,-16.74925666887549,-55.62291067122122
2786,-0.01073162270197848,-16.53636480979473,-71.99811335956512
2801.800000000001,-0.01102720350957391,-16.41939674156318,-88.2241156154963
2817.6,-0.01040443712727896,-16.2822260606822,-104.5290381250239
2833.400000000001,-0.0111918065965245,-16.19187302590921,-120.9234343141268
2849.2,-0.01162976097674319,-15.99016512664195,-137.2897657439405
2865,-0.01081552663611124,-15.9002924260664,-153.5370332680193
2880.800000000001,-0.01116927000791844,-15.70745918822679,-169.9826546934957
2896.6,-0.01101101289182042,-15.60751036123505,173.7789563938249
2912.400000000001,-0.01110853109404,-15.47769596128884,157.4601764764926
2928.2,-0.01164345541381906,-15.27715028805877,141.0248786609716
2944,-0.01095519414334277,-15.14762849754178,124.6551583012604
2959.800000000001,-0.01126722293443493,-15.00148960385275,108.3002745815977
2975.6,-0.01078064640543485,-14.84222551047989,91.88840655580255
2991.400000000001,-0.01094408170039205,-14.68501359804442,75.52239030660172
3007.2,-0.01178472291671971,-14.53106952969712,59.14925072337369
3023,-0.01105265096696774,-14.34910238740919,42.72464360011903
3038.800000000001,-0.01133491545679665,-14.19607896387766,26.32083183380106
3054.6,-0.01154703831458099,-14.01791301768179,9.914204607649788
3070.400000000001,-0.01187197167041188,-13.84231826751068,-6.487685898682258
3086.2,-0.01060103756329537,-13.77956919824111,-22.81135155360989
3102,-0.01086321264833759,-13.41820914777044,-39.48626418183999
3117.800000000001,-0.01184654116376331,-13.22182868130729,-56.20488927316759
3133.6,-0.01154235257692835,-13.15489112671531,-72.34880477525212
3149.400000000001,-0.01175565792773694,-12.94958104429195,-88.78537419445209
3165.2,-0.01222528482711017,-12.93218673886414,-104.8639346650427
3181,-0.01209166962192381,-12.49564727147192,-121.5833280966614
3196.800000000001,-0.01169035823736022,-12.20160901188741,-138.7488922392611
3212.6,-0.01270057817783681,-12.32160223984291,-154.6873640863806
3228.400000000001,-0.01211392064876208,-12.03035789093454,-171.3610435523304
3244.2,-0.01202489234432138,-11.45219918330622,171.918235365712
3260,-0.01252278314926074,-11.54494314219439,155.5090171915811
3275.800000000001,-0.01247595165751738,-11.52464563760942,138.7955848557762
3291.6,-0.01246460694040331,-10.98358799321066,122.4086897455248
3307.400000000001,-0.01254373530324317,-10.81167352872657,105.8792768234179
3323.2,-0.01372803143272393,-10.32020637462851,88.36831881927134
3339,-0.01325999138665199,-9.896384097933895,71.60207329980112
3354.800000000001,-0.01217249993488328,-9.631524074253324,54.4300000319344
3370.6,-0.013457740945098,-9.289989504130565,37.53546372752349
3386.400000000001,-0.01249468932697158,-8.827145376598601,20.09664386925891
3402.2,-0.01260150384567603,-8.290202717783693,2.49511259877437
3418,-0.0119999747324501,-7.359459844512926,-16.92561275971894
3433.800000000001,-0.01323768886713471,-6.940119791687534,-31.44753335452781
3449.6,-0.01307499004090373,-0.2320654303936051,-116.3740920272602
3465.400000000001,-0.01268612391412918,-0.2303108113356533,-133.5305316787253
3481.2,-0.01278812147889572,-0.2303579699621013,-149.6513670489203
3497,-0.01370034499590777,-0.2284715487863033,-165.736027783279
3512.800000000001,-0.01344617923743683,-0.2279890069954799,178.1854764248025
3528.6,-0.0125353278604338,-0.2272078370213639,162.1703174123009
3544.400000000001,-0.01345332102485493,-0.2241383495971169,146.2526722655601
3560.2,-0.01358955240162554,-0.2246491411319761,130.0600971539142
3576,-0.0136175844387654,-0.2236998090829906,114.0711235548651
3591.800000000001,-0.0129402284003432,-0.2220988061233364,98.07009937287461
3607.6,-0.01314340245665858,-0.2219196326026278,82.03195993158417
3623.400000000001,-0.01391585297146779,-0.2195845266689259,65.96817271216679
3639.2,-0.01360704786332501,-0.2186925552993796,50.03358546644394
3655,-0.01360265653192383,-0.2189244541071614,33.78987804461415
3670.800000000001,-0.01355265903862748,-0.2177851177262665,17.81142921246235
3686.6,-0.01439646125632969,-0.2177138782278157,1.79072295807637
3702.400000000001,-0.01402289742657266,-0.2173045324880832,-14.31183130836023
3718.2,-0.01353102979730059,-0.2162906210714851,-30.31881216052191
3734,-0.01306742725424789,-0.2163170981741595,-46.4582692358167
3749.800000000001,-0.01413838959494905,-0.2153583944783363,-62.50608164042312
3765.6,-0.01464371035034236,-0.2139453991102017,-78.60918287913066
3781.400000000001,-0.01485621812002902,-0.2130047096975508,-94.58614516393521
3797.2,-0.01413554327556018,-0.2122918244200594,-110.6931839084215
3813,-0.01399268697955404,-0.2120466000678022,-126.7525844375045
3828.800000000001,-0.01531245790347708,-0.2099602272533838,-142.6918014935003
3844.6,-0.01502741465229421,-0.2096034484716701,-158.8134025928133
3860.400000000001,-0.01487038129731344,-0.2068437216708717,-174.7234516958082
3876.2,-0.01467195789929312,-0.2070638944699504,169.203673925736
3892,-0.01432087602829876,-0.2070506085532864,153.010952909117
3907.800000000001,-0.01527161425008465,-0.2077634311284567,137.061453333101
3923.6,-0.01519209415277641,-0.2073050137454208,120.9918382710116
3939.400000000001,-0.01472007592170486,-0.2064675369725949,104.9540977508257
3955.2,-0.01450630808361624,-0.2076670422300302,89.06886612108204
3971,-0.0148289584976559,-0.2065853501801152,72.81513540905436
3986.800000000001,-0.01488902286133288,-0.2045669024995839,56.85484131627233
4002.6,-0.0151223958189786,-0.2051830065166807,40.75610028809449
4018.400000000001,-0.01411479349739089,-0.2046398515841824,24.70478974253296
4034.2,-0.01459229526899508,-0.203320685433862,8.623293906551702
4050,-0.01469774515924888,-0.2034869531137995,-7.25361943300129
4065.800000000001,-0.01578339015990496,-0.2028424310819426,-23.47080357339681
4081.6,-0.01635804036686027,-0.2008644352721183,-39.42105996666658
4097.400000000001,-0.0151338976525935,-0.1989491971604815,-55.55061394551279
4113.200000000001,-0.01522899518783201,-0.1988727207571356,-71.50769605073793
4129.000000000001,-0.01487214040042868,-0.1994685196930593,-87.66291959859778
4144.800000000001,-0.016504754867717,-0.1978755861863431,-103.6346521959273
4160.6,-0.0161274973429992,-0.1994553698781732,-119.8514651531635
4176.400000000001,-0.01619950141165781,-0.1991485795885862,-135.8120201918925
4192.200000000001,-0.0152967324522549,-0.2002288007514569,-151.7224670499782
4208.000000000001,-0.01556165997374058,-0.2009275066240488,-167.8558140148431
4223.8,-0.01586708539809662,-0.2005781720776395,176.1097632232728
4239.6,-0.01690015860569723,-0.2017473128967808,160.0827652041441
4255.400000000001,-0.01590199974140352,-0.2027895844211031,143.9964961923474
4271.200000000001,-0.01660775762417897,-0.2032176400807934,127.9615031558844
4287.000000000001,-0.01591734425981619,-0.2043369140774971,111.8112067168131
4302.800000000001,-0.01557425042998108,-0.2053430682981211,95.77476285354854
4318.600000000001,-0.01551013924870541,-0.2064252658837268,79.69739732629083
4334.400000000001,-0.01740685070741146,-0.2064187393566172,63.62681765968106
4350.200000000001,-0.01643387488632261,-0.2072445101112528,47.61729814740883
4366.000000000001,-0.01658416696626561,-0.2080895628362686,31.51748070793696
4381.800000000001,-0.01640659575146846,-0.2089598758513303,15.60604603026138
4397.600000000001,-0.01577885941837099,-0.2103784477554943,-0.5623635533935811
4413.400000000001,-0.01571052034023155,-0.2123304297580985,-16.64630778070214
4429.200000000001,-0.01761125232628973,-0.2126934542304489,-32.61135222248925
4445.000000000001,-0.01711439494720885,-0.2146767101846172,-48.6628195171554
4460.800000000001,-0.01679250313448906,-0.2176579350792594,-64.5397130539307
4476.600000000001,-0.01681385717638079,-0.2176378949096621,-80.62044757122158
