#Digilent WaveForms Network Analyzer - Bode
#Device Name: Discovery2
#Serial Number: SN:210321B027D8
#Date Time: 2023-06-12 12:21:23.496
#Start: 100 Hz
#Stop: 8000 Hz
#Steps: 501
#Wavegen: Wavegen C1
#Amplification: 1 X
#Settle: 10 ms
#MinPeriods: 16 
#Channel: Channel 1
#Range: 5.47316 V
#Offset: 0.000111453 V
#Relative: no
#Channel: Channel 2
#Range: 5.4696 V
#Offset: 0.000228279 V
#Relative: yes

Frequency (Hz),Channel 1 Magnitude (dB),Channel 2 Magnitude (dB),Channel 2 Phase (deg)
100,-0.005669912300653875,-50.78861115093125,171.1090392109039
115.8,-0.005010453477875636,-49.44510002217467,153.4805149878017
131.6,-0.004475338238840732,-48.30322829353825,136.6990299615609
147.4,-0.004291503821219502,-47.21835382538767,119.9898589513267
163.2,-0.003966354029741563,-46.26586801944143,103.3108438456722
179,-0.003939836879028173,-45.43769230169873,86.62356421691011
194.8,-0.003415552607185215,-44.64225259123782,71.22133040782494
210.6,-0.003341226487682788,-43.86871520088776,54.36634641954934
226.4,-0.003409514815497641,-43.23548702500677,38.29896483024417
242.2,-0.003002981573393494,-42.61225100248684,22.29458132793891
258.0000000000001,-0.003187726563575952,-42.10073251251405,6.351162158673849
273.8000000000001,-0.002674100878489587,-41.54077608649995,-9.420273319508407
289.6,-0.00309932354395557,-41.0618132011586,-25.73187024336794
305.4,-0.00326744585762364,-40.58629643839513,-41.65068264249496
321.2,-0.00310988075766797,-40.16891531840134,-58.04248778005327
337.0000000000001,-0.003539873199321829,-39.77790321405833,-74.08881738517981
352.8000000000001,-0.003258285149679071,-39.41069096490858,-90.54550722717666
368.6000000000001,-0.002850052173702318,-39.03648074653406,-106.5894398351302
384.4,-0.00314356123220489,-38.69193623186617,-123.0116382381595
400.2,-0.003036324347607964,-38.37690124876448,-139.3984302043678
416.0000000000001,-0.003296553293238315,-38.05348862712265,-155.6949167873481
431.8000000000001,-0.003403845317499456,-37.69566852542343,-171.8592484730513
447.6000000000001,-0.003218203522457443,-37.42061017384835,171.771650028563
463.4,-0.003406595261310134,-37.10154747522217,155.3255236642892
479.2,-0.003182379049181624,-36.77328199559659,138.814026401385
495.0000000000001,-0.003565414414477246,-36.52053224743853,122.4752039947457
510.8000000000001,-0.003526615253031053,-36.19576922765119,106.2094875275559
526.6000000000001,-0.003394815589093459,-35.92253757559156,89.82733310367699
542.4000000000001,-0.003091161887637281,-35.61344267791066,73.62771421272457
558.2,-0.003070444554361552,-35.33806270536019,57.57154549720411
574.0000000000001,-0.003248555927949379,-35.0680566459984,41.33552047861711
589.8000000000001,-0.003034245983799328,-34.83547160535801,24.96623755933414
605.6000000000001,-0.003260548689484116,-34.54887735820777,8.994089459873498
621.4000000000001,-0.003091801693035874,-34.34205767736954,-7.169465123455353
637.2000000000002,-0.003270221114371414,-34.14054872348248,-23.349162772776
653.0000000000001,-0.002986565776676967,-33.90866530257386,-39.43467380619416
668.8000000000001,-0.003179903394647582,-33.67779590583864,-55.60871079990393
684.6000000000001,-0.003626420482713015,-33.46842605668122,-71.72723868412024
700.4000000000001,-0.003527349310989956,-33.26647919211613,-88.04838168134326
716.2000000000002,-0.003916372497004321,-33.08834623709274,-104.3301278126848
732.0000000000001,-0.003953625321569799,-32.89806633028794,-120.3279597965945
747.8000000000001,-0.003979790852133021,-32.74058421762936,-136.3384411889046
763.6000000000001,-0.003803913113712692,-32.51617921276149,-152.9478519196752
779.4000000000001,-0.004110915673889023,-32.29985647026761,-168.8432041137162
795.2000000000002,-0.003634123556475877,-32.17884666649661,174.6385781476897
811.0000000000001,-0.004117777294280854,-31.98772622882773,158.1986173230534
826.8000000000001,-0.003873399041069771,-31.80897541584847,142.0109402902842
842.6000000000001,-0.003819053131225299,-31.62373057001864,125.6165629263659
858.4000000000001,-0.003775329480809583,-31.45398145804159,109.6171112151406
874.2000000000002,-0.00399781966876404,-31.28684880471763,93.12027474786511
890.0000000000001,-0.004231031109271388,-31.07613017223656,76.83222913793938
905.8000000000001,-0.003746264300850679,-30.89917697400442,60.70884851266472
921.6000000000001,-0.004195829696759817,-30.72137296634121,44.45459958573348
937.4000000000001,-0.004224567230296093,-30.57349495639595,28.30965430707157
953.2000000000002,-0.004281971411966391,-30.41411948100729,12.03683287919158
969.0000000000001,-0.003936822757538243,-30.22431271832384,-4.050034462250252
984.8000000000001,-0.004345129409988537,-30.09433814325749,-20.10476001584997
1000.6,-0.004039579175573848,-29.91486514718211,-36.53810614471202
1016.4,-0.004092678740271321,-29.77530770184413,-52.6277843198936
1032.2,-0.004144834430113738,-29.64182415978575,-68.65138872294588
1048,-0.004736097903309966,-29.50287230379988,-85.00579331011674
1063.8,-0.004443291439634073,-29.33755277987678,-101.0894590958595
1079.6,-0.00468377183818731,-29.19833116172219,-117.3573993391709
1095.4,-0.004791219005671979,-29.10217748740887,-133.5804948516449
1111.2,-0.004999957455751092,-28.94325888747382,-149.8022199507575
1127,-0.003824920391315138,-28.81751920990737,-166.0715765981439
1142.8,-0.004394831763818123,-28.68400249322672,177.7200842233621
1158.6,-0.004388074085624714,-28.54279718663843,161.4879917177188
1174.4,-0.005263827705536029,-28.3954539678042,145.0640137156953
1190.2,-0.004682776750918026,-28.28346772524979,128.9322043369658
1206,-0.004689589363256112,-28.13790682357646,112.6179376860321
1221.8,-0.005405592937531368,-27.9981463041769,96.27317876327577
1237.6,-0.004723961328616823,-27.88181490701811,80.10706219910179
1253.4,-0.004848004481832985,-27.74999269464404,63.74107624445319
1269.2,-0.005213918374534728,-27.62237703097659,47.60390942668248
1285,-0.005445998778911432,-27.45489528396772,31.41416005000049
1300.8,-0.005114874846452499,-27.3496899237072,15.13806392313489
1316.6,-0.004782165059735304,-27.22038348233564,-1.019121509884165
1332.4,-0.004723691532620052,-27.07892955192949,-17.20334142267468
1348.2,-0.005015201933421512,-26.97062231226787,-33.37375950889085
1364,-0.004933228629947539,-26.82420758280274,-49.52798081787683
1379.8,-0.005302230130656613,-26.71246478871883,-65.79091064047483
1395.6,-0.005424212373692818,-26.59171682243972,-81.99873293934832
1411.4,-0.005598347798093022,-26.48980593312623,-98.20005711163682
1427.2,-0.005382323007864279,-26.35783220012436,-114.3886134747873
1443,-0.006007474601548933,-26.23461036377547,-130.5467137474299
1458.8,-0.005874702744041363,-26.12887843569207,-146.8777579015008
1474.6,-0.005799898436726603,-26.01216846166519,-163.0573629624334
1490.4,-0.005610928926164683,-25.90153325425844,-179.2880190847098
1506.2,-0.006199448190030137,-25.78634194921993,164.466722279535
1522,-0.005793975850059275,-25.66023351914858,148.1842324480009
1537.8,-0.006126479745266846,-25.56004026074872,131.9088537684902
1553.6,-0.006052875175322986,-25.44043527531957,115.7141176488481
1569.4,-0.005610995347680134,-25.32447082003794,99.39541344287889
1585.2,-0.005742115167052355,-25.20248107779094,83.22062397105826
1601,-0.005710313557688486,-25.08639543664579,66.93191897213163
1616.8,-0.006154424985720431,-24.99548597615581,50.71556455386531
1632.6,-0.005816863665619764,-24.8377055216193,34.48133032202239
1648.4,-0.005726502592874873,-24.73845525306052,18.24874108089366
1664.2,-0.006261453976842463,-24.61681177289702,2.033144135521611
1680,-0.005874336319607962,-24.51497278174714,-14.11811668114324
1695.8,-0.006005253393716494,-24.40428346693237,-30.37680026819926
1711.6,-0.006034809819766657,-24.30619817796924,-46.55110061787444
1727.4,-0.006400285531339337,-24.17484222278441,-62.80052675886206
1743.2,-0.006538835459997705,-24.06425347000137,-78.98884716829825
1759,-0.006191383738929373,-23.95393416726144,-95.27422885756229
1774.8,-0.006300549256775472,-23.84543078567574,-111.409808080499
1790.6,-0.007325692653105857,-23.7503877894814,-127.6994972203327
1806.4,-0.007735716211377967,-23.64452868298496,-143.9042545608412
1822.2,-0.007060681204248383,-23.53246227273731,-160.1062060545926
1838,-0.007102092418610532,-23.43131814936665,-176.4106695225182
1853.8,-0.006746525684068737,-23.3380826096069,167.4066331693528
1869.6,-0.006529030272155231,-23.22418854417229,151.1065751685412
1885.4,-0.007279658938342181,-23.11162117096721,134.8764615545772
1901.2,-0.007433498885752605,-23.01461850592779,118.5775163622752
1917,-0.007271773498538698,-22.90326620495447,102.3794181854387
1932.8,-0.007309130604934655,-22.79002417025054,86.11407682644521
1948.6,-0.007256946689117804,-22.69431006954302,69.86391803430661
1964.4,-0.007185499145780509,-22.56171942884702,53.6505443193534
1980.2,-0.008135960484370403,-22.46084336066932,37.41147152374598
1996,-0.007523191577178187,-22.35744170516777,20.9747806389929
2011.8,-0.007096708930511016,-22.24852408568989,4.918036118535236
2027.6,-0.007074093471559827,-22.13217107999581,-11.36064117787181
2043.4,-0.007487430426473654,-22.03078969847645,-27.62475377680932
2059.2,-0.008117389141876617,-21.92171047280669,-43.77818597905535
2075,-0.007683591426706827,-21.81365119668592,-60.0067134738498
2090.8,-0.007510607080573332,-21.70899353534003,-76.27909824020773
2106.6,-0.007746261111294191,-21.59256911055326,-92.52812879649343
2122.400000000001,-0.007529242155961062,-21.50030286553614,-108.75892232404
2138.2,-0.007755171380991551,-21.38593229837619,-125.0079212306359
2154,-0.008451976670134784,-21.27596573572035,-141.2823857143878
2169.8,-0.007811097671107886,-21.18423732485551,-157.4169453610729
2185.6,-0.007769980401407675,-21.0686312758406,-173.7588389111961
2201.400000000001,-0.008343176237151953,-20.9670733075989,170.0019421225554
2217.2,-0.008043890803045187,-20.86074608740311,153.8005337579433
2233,-0.008230990051329327,-20.74821099859116,137.4437657075827
2248.800000000001,-0.008827373508281462,-20.64360469384673,121.1817119633987
2264.6,-0.009009279667790245,-20.52844864751425,105.0378349680097
2280.400000000001,-0.009150077529410333,-20.42992860956278,88.67387572350869
2296.2,-0.008459650431986994,-20.30642010003942,72.42081208894075
2312,-0.008948979243866406,-20.19802219390009,56.17885989390091
2327.800000000001,-0.008621972794374738,-20.08130038921347,39.89576765126202
2343.6,-0.007939956979525318,-19.97769339986497,23.60935752912597
2359.400000000001,-0.008962354125330899,-19.85954449362561,7.385048955378392
2375.2,-0.008761535936765288,-19.74437306308552,-8.878015778545389
2391,-0.009256313048001837,-19.63360322801525,-25.15687454574678
2406.800000000001,-0.009073323149268247,-19.51428973052363,-41.37862113734541
2422.6,-0.009526671178883239,-19.40376118302181,-57.66983400098481
2438.400000000001,-0.008800737922684179,-19.28766699084008,-73.90148094838969
2454.2,-0.01004271679435283,-19.18013556588092,-90.13785962854085
2470,-0.00929125449220821,-19.06070376833517,-106.4408667877654
2485.800000000001,-0.00937740302611979,-18.94676334691862,-122.6649070627725
2501.6,-0.009269139827580274,-18.84016434875982,-138.9419152042014
2517.400000000001,-0.009517072681044934,-18.72026368489772,-155.2324038337641
2533.2,-0.008765321356944859,-18.60820876243664,-171.5074377431786
2549,-0.01008819904754947,-18.49066589811798,172.2210326688804
2564.800000000001,-0.009334455952265782,-18.37535075336359,155.9518758525444
2580.6,-0.009884485337161304,-18.25305490009499,139.6163114436615
2596.400000000001,-0.009420932890868382,-18.13731130297859,123.3152217821269
2612.2,-0.009717204686745654,-18.02329773627989,107.0431472704651
2628,-0.009701241550224563,-17.90293391939913,90.75173282365446
2643.800000000001,-0.01003075502972631,-17.77923406337117,74.44102745365839
2659.6,-0.009902726164664422,-17.65803430613033,58.13581403511539
2675.400000000001,-0.009339604421394521,-17.5377113076284,41.8481109336411
2691.2,-0.01037721046802688,-17.41346166822406,25.53699041737124
2707,-0.01019763625358007,-17.28513518924876,9.232566512183023
2722.800000000001,-0.009629412656331621,-17.1593684083121,-7.046832409312901
2738.6,-0.009894470264859501,-17.02817794253863,-23.36318676390027
2754.400000000001,-0.01040201951728693,-16.90501518648246,-39.6589908345354
2770.2,-0.01055136177968654,-16.78010980956538,-55.9521639828079
2786,-0.01027662569753514,-16.64914596035539,-72.28034481678827
2801.800000000001,-0.01119213425853486,-16.51811195694048,-88.57061874207865
2817.6,-0.01017146847397501,-16.38615723253583,-104.8826429909972
2833.400000000001,-0.01063576013423559,-16.26098916582532,-121.199877455943
2849.2,-0.01039017071969393,-16.1259036553535,-137.5272877651617
2865,-0.01055892532450696,-15.99129839985356,-153.8778164585289
2880.800000000001,-0.01099391538643731,-15.85741044697902,-170.1862173267712
2896.6,-0.0105557708580109,-15.71895395586634,173.4696089508747
2912.400000000001,-0.01054442228797807,-15.58547777513971,157.125166837924
2928.2,-0.01181683933092792,-15.44734793175631,140.7870272377328
2944,-0.01139083454795551,-15.30388929623605,124.4411951459549
2959.800000000001,-0.01183798753988006,-15.16346157957963,108.0678883671955
2975.6,-0.01104158228665829,-15.02158329186336,91.70278292573445
2991.400000000001,-0.01060353441209813,-14.87116010479935,75.3304782166102
3007.2,-0.01142398165555161,-14.72837882106526,58.93381124423494
3023,-0.01174118011289204,-14.57731966473689,42.59286224600633
3038.800000000001,-0.0113979276817408,-14.42466082739585,26.19916721805773
3054.6,-0.01132997376810759,-14.26899747237675,9.808803332643004
3070.400000000001,-0.01139591828208314,-14.11495679808846,-6.576295048124857
3086.2,-0.0108285145934481,-13.95984511252659,-23.00062438458019
3102,-0.0118103472356106,-13.80014231457708,-39.36584641658445
3117.800000000001,-0.01179859844498774,-13.63706880892539,-55.79967877669768
3133.6,-0.0114938030836266,-13.47086961828251,-72.19730115065279
3149.400000000001,-0.01132384168791964,-13.30837798259149,-88.62995719306095
3165.2,-0.0121139032816122,-13.14246380963144,-105.0638001266906
3181,-0.01176779410527643,-12.97154512843229,-121.495670466493
3196.800000000001,-0.01166468146415073,-12.8003312947489,-137.9513216429453
3212.6,-0.01214812768089045,-12.63378394531765,-154.4211412614684
3228.400000000001,-0.01247805253069525,-12.44842980759917,-170.8915585364813
3244.2,-0.01228682817427545,-12.2743401406886,172.6274737937993
3260,-0.01283811219650459,-12.08860858291477,156.112174876498
3275.800000000001,-0.01276332720299577,-11.9048331495275,139.6186441851091
3291.6,-0.01204713171791782,-11.71551390461739,123.1020281299712
3307.400000000001,-0.01182400171654272,-11.52331834498249,106.5537520551629
3323.2,-0.01240416049859148,-11.32898112259767,89.99737704770382
3339,-0.01274169312822675,-11.130855185552,73.40969429902128
3354.800000000001,-0.01189242670094265,-10.93020347685153,56.83372901076151
3370.6,-0.01294595048439391,-10.72648825224074,40.22489121583011
3386.400000000001,-0.01243448938659517,-10.51510411758749,23.60071692151681
3402.2,-0.01259979805795813,-10.30440606032504,6.958735633395679
3418,-0.01338703843032548,-10.0823376812471,-9.71430369263209
3433.800000000001,-0.01312153597428526,-9.862666674439962,-26.40173764795471
3449.6,-0.01376996056655516,-9.633337471893821,-43.10284902295879
3465.400000000001,-0.01238506722675708,-9.405383908393349,-59.82961796321808
3481.2,-0.01345205506511836,-9.171172027576725,-76.57929367841544
3497,-0.01368848039390813,-8.929029902824036,-93.37521726779332
3512.800000000001,-0.01424860839907887,-8.68293007276764,-110.2111409939165
3528.6,-0.01343085516480566,-8.435546135668821,-127.0787350545208
3544.400000000001,-0.01330369372277014,-8.18023962760479,-143.9830956523303
3560.2,-0.01453157126019662,-7.916534598560862,-160.9226449805815
3576,-0.01397128195742304,-7.652885756832994,-177.9263289428396
3591.800000000001,-0.01331373870269492,-7.378159353902581,165.026798888316
3607.6,-0.0139077894102772,-7.10110605091149,147.9191582743836
3623.400000000001,-0.01446366601916603,-6.816099195836788,130.7589729678707
3639.2,-0.01387305759450556,-6.523755039845066,113.5331395557186
3655,-0.01423208818611662,-6.227415000846404,96.23327054107109
3670.800000000001,-0.0138504291108246,-5.921160354794967,78.84671695239163
3686.6,-0.01392080447701217,-5.608872986896813,61.39583650013986
3702.400000000001,-0.01441877652994882,-5.290904743872717,43.83595293531478
3718.2,-0.0137314362592686,-4.968935686076057,26.17535921441829
3734,-0.01384474586303631,-4.640107182280025,8.398780092260376
3749.800000000001,-0.01394683188402252,-4.303025579040102,-9.487692357494563
3765.6,-0.01454220256977093,-3.963830206731227,-27.51007985071307
3781.400000000001,-0.01465909984264621,-3.621189492626576,-45.69156025387281
3797.2,-0.01500896515433458,-3.277097005581284,-64.02996171979073
3813,-0.01422345301521168,-2.934864999682137,-82.53080106501548
3828.800000000001,-0.01516275719344343,-2.591854471581926,-101.2433974473898
3844.6,-0.01486658070322137,-2.255857081326676,-120.1437062024496
3860.400000000001,-0.0146315664206297,-1.926185994158016,-139.2675958519893
3876.2,-0.01540678988656505,-1.610505077063884,-158.6089871692144
3892,-0.01565852390600425,-1.312791503321748,-178.1924762261932
3907.800000000001,-0.01526025063189586,-1.040469085650785,161.9998636970373
3923.6,-0.0152797007212949,-0.7959730593872344,141.9846617036077
3939.400000000001,-0.01543564344167384,-0.5853735299144838,121.7385369678596
3955.2,-0.0150830830342619,-0.4176997770251036,101.3273787897779
3971,-0.01537377794575355,-0.2952840413776828,80.77588076230873
3986.800000000001,-0.01577085871025159,-0.2230852051392772,60.12392002127494
4002.6,-0.01545839131520997,-0.2046369632203155,39.42161122515155
4018.400000000001,-0.01521408457866726,-0.2398003843172538,18.74718373275698
4034.2,-0.01440716839779296,-0.3269175015266912,-1.881385863584249
4050,-0.01515574780593035,-0.4634371706760386,-22.4023544448268
4065.800000000001,-0.01664389111787191,-0.6451368000869634,-42.73669436136885
4081.6,-0.01584069866224893,-0.865952271649238,-62.91551112433108
4097.400000000001,-0.01578026985986774,-1.119322187402495,-82.86969827048229
4113.200000000001,-0.01576207529627413,-1.400604459756811,-102.597580367848
4129.000000000001,-0.01560541475776124,-1.704062574751448,-122.0843283594908
4144.800000000001,-0.01616527057091253,-2.023827054771555,-141.3727398871195
4160.6,-0.01648171107870513,-2.353095387604105,-160.4189803267995
4176.400000000001,-0.01654783251919343,-2.692099107368024,-179.25137191431
4192.200000000001,-0.01638544675818355,-3.035459549143236,162.0890880744369
4208.000000000001,-0.01605354809045377,-3.379675362358086,143.6483911402712
4223.8,-0.01591280477957803,-3.722814743014492,125.3591163908237
4239.6,-0.01730619562596237,-4.064558029535934,107.2263202777708
4255.400000000001,-0.01648075384859714,-4.401443382149647,89.23534684624808
4271.200000000001,-0.01644267738089022,-4.73268047438533,71.40164234677972
4287.000000000001,-0.01635487385636689,-5.063704590913927,53.65856991091829
4302.800000000001,-0.01627622733024518,-5.383081792602471,36.02361035814015
4318.600000000001,-0.01606884271325297,-5.700345354552343,18.50124855990017
4334.400000000001,-0.01779966575243043,-6.009084700466618,1.07728373062649
4350.200000000001,-0.01679918697028167,-6.310882741658572,-16.27971497670475
4366.000000000001,-0.01615094036749284,-6.60901903921856,-33.53272256261757
4381.800000000001,-0.01650633394353033,-6.897403803781142,-50.75476217198857
4397.600000000001,-0.01596510116644757,-7.179215927318045,-67.8829035713072
4413.400000000001,-0.01664819788094564,-7.461642176565412,-84.96936321225284
4429.200000000001,-0.01771567437857557,-7.730160218721221,-101.991551988012
4445.000000000001,-0.01768731097718683,-7.995016855796523,-118.9751284706351
4460.800000000001,-0.01643268657987577,-8.256501865247555,-135.9006657869303
4476.600000000001,-0.01665735029981085,-8.510461524564981,-152.798816904288
4492.400000000001,-0.01648500400732955,-8.755487585125758,-169.6312561570138
